<Qucs Dataset 0.0.19>
<indep frequency 201>
  +3.00000000000000000000e+05
  +3.06987897684226220008e+05
  +3.14138564415269880556e+05
  +3.21455791571281908546e+05
  +3.28943458842955529690e+05
  +3.36605536290589021519e+05
  +3.44446086449064838234e+05
  +3.52469266481858852785e+05
  +3.60679330385223904159e+05
  +3.69080631243714422453e+05
  +3.77677623538250103593e+05
  +3.86474865507940121461e+05
  +3.95477021566922077909e+05
  +4.04688864777496084571e+05
  +4.14115279380865453277e+05
  +4.23761263386826263741e+05
  +4.33631931223778228741e+05
  +4.43732516450462164357e+05
  +4.54068374530862376560e+05
  +4.64644985673744347878e+05
  +4.75467957738334021997e+05
  +4.86543029207678919192e+05
  +4.97876072231268102769e+05
  +5.09473095738523232285e+05
  +5.21340248624812578782e+05
  +5.33483823011676780879e+05
  +5.45910257582994992845e+05
  +5.58626140998860239051e+05
  +5.71638215388974058442e+05
  +5.84953379927413538098e+05
  +5.98578694490663823672e+05
  +6.12521383400858612731e+05
  +6.26788839256211766042e+05
  +6.41388626850669505075e+05
  +6.56328487184865633026e+05
  +6.71616341570501681417e+05
  +6.87260295830331859179e+05
  +7.03268644595976453274e+05
  +7.19649875705846934579e+05
  +7.36412674705509096384e+05
  +7.53565929452873766422e+05
  +7.71118734830658882856e+05
  +7.89080397568614338525e+05
  +8.07460441178074572235e+05
  +8.26268611001449753530e+05
  +8.45514879379335790873e+05
  +8.65209450937981600873e+05
  +8.85362767999915406108e+05
  +9.05985516120604705065e+05
  +9.27088629754076944664e+05
  +9.48683298050513491035e+05
  +9.70780970788884558715e+05
  +9.93393364447772968560e+05
  +1.01653246841760736424e+06
  +1.04021055135759455152e+06
  +1.06444016770072607324e+06
  +1.08923416431030374952e+06
  +1.11460568729151738808e+06
  +1.14056818896168330684e+06
  +1.16713543498284136876e+06
  +1.19432151166049134918e+06
  +1.22214083341233781539e+06
  +1.25060815041100583039e+06
  +1.27973855640477756970e+06
  +1.30954749672049749643e+06
  +1.34005077645288873464e+06
  +1.37126456884462479502e+06
  +1.40320542386159393936e+06
  +1.43589027696791477501e+06
  +1.46933645810533803888e+06
  +1.50356170088181598112e+06
  +1.53858415197409410030e+06
  +1.57442238074931711890e+06
  +1.61109538911075773649e+06
  +1.64862262157287285663e+06
  +1.68702397557104635052e+06
  +1.72631981201147008687e+06
  +1.76653096606676606461e+06
  +1.80767875822307262570e+06
  +1.84978500558444554918e+06
  +1.89287203344057872891e+06
  +1.93696268710396578535e+06
  +1.98208034402278694324e+06
  +2.02824892617594450712e+06
  +2.07549291275680833496e+06
  +2.12383735315241292119e+06
  +2.17330788022496923804e+06
  +2.22393072390275169164e+06
  +2.27573272508755046874e+06
  +2.32874134988607419655e+06
  +2.38298470417284313589e+06
  +2.43849154849229566753e+06
  +2.49529131330801220611e+06
  +2.55341411460712831467e+06
  +2.61289076986824022606e+06
  +2.67375281440123450011e+06
  +2.73603251806772826239e+06
  +2.79976290239097224548e+06
  +2.86497775806430634111e+06
  +2.93171166286743059754e+06
  +2.99999999999999767169e+06
  +3.06987897684226138517e+06
  +3.14138564415269717574e+06
  +3.21455791571281757206e+06
  +3.28943458842955296859e+06
  +3.36605536290588835254e+06
  +3.44446086449064686894e+06
  +3.52469266481858678162e+06
  +3.60679330385223636404e+06
  +3.69080631243714224547e+06
  +3.77677623538249870762e+06
  +3.86474865507940016687e+06
  +3.95477021566921938211e+06
  +4.04688864777495851740e+06
  +4.14115279380865162238e+06
  +4.23761263386825937778e+06
  +4.33631931223778054118e+06
  +4.43732516450462024659e+06
  +4.54068374530862178653e+06
  +4.64644985673744045198e+06
  +4.75467957738333661109e+06
  +4.86543029207678698003e+06
  +4.97876072231267858297e+06
  +5.09473095738522987813e+06
  +5.21340248624812252820e+06
  +5.33483823011676408350e+06
  +5.45910257582994829863e+06
  +5.58626140998859889805e+06
  +5.71638215388973802328e+06
  +5.84953379927413165569e+06
  +5.98578694490663427860e+06
  +6.12521383400858473033e+06
  +6.26788839256211463362e+06
  +6.41388626850669179112e+06
  +6.56328487184865307063e+06
  +6.71616341570501308888e+06
  +6.87260295830331463367e+06
  +7.03268644595976267010e+06
  +7.19649875705846585333e+06
  +7.36412674705508537591e+06
  +7.53565929452873300761e+06
  +7.71118734830658696592e+06
  +7.89080397568614035845e+06
  +8.07460441178074106574e+06
  +8.26268611001449171454e+06
  +8.45514879379335418344e+06
  +8.65209450937981158495e+06
  +8.85362767999915033579e+06
  +9.05985516120604053140e+06
  +9.27088629754076339304e+06
  +9.48683298050512745976e+06
  +9.70780970788884162903e+06
  +9.93393364447772502899e+06
  +1.01653246841760668904e+07
  +1.04021055135759394616e+07
  +1.06444016770072542131e+07
  +1.08923416431030314416e+07
  +1.11460568729151673615e+07
  +1.14056818896168265492e+07
  +1.16713543498284071684e+07
  +1.19432151166049055755e+07
  +1.22214083341233730316e+07
  +1.25060815041100513190e+07
  +1.27973855640477668494e+07
  +1.30954749672049656510e+07
  +1.34005077645288836211e+07
  +1.37126456884462404996e+07
  +1.40320542386159338057e+07
  +1.43589027696791384369e+07
  +1.46933645810533706099e+07
  +1.50356170088181588799e+07
  +1.53858415197409335524e+07
  +1.57442238074931651354e+07
  +1.61109538911075666547e+07
  +1.64862262157287262380e+07
  +1.68702397557104602456e+07
  +1.72631981201146952808e+07
  +1.76653096606676541269e+07
  +1.80767875822307132185e+07
  +1.84978500558444447815e+07
  +1.89287203344057761133e+07
  +1.93696268710396364331e+07
  +1.98208034402278512716e+07
  +2.02824892617594413459e+07
  +2.07549291275680810213e+07
  +2.12383735315241217613e+07
  +2.17330788022496812046e+07
  +2.22393072390275038779e+07
  +2.27573272508754879236e+07
  +2.32874134988607242703e+07
  +2.38298470417284145951e+07
  +2.43849154849229417741e+07
  +2.49529131330801174045e+07
  +2.55341411460712775588e+07
  +2.61289076986824013293e+07
  +2.67375281440123431385e+07
  +2.73603251806772649288e+07
  +2.79976290239097028971e+07
  +2.86497775806430466473e+07
  +2.93171166286742873490e+07
  +2.99999999999999627471e+07
</indep>
<dep dBS11 frequency>
  -2.30633229978254185701e-05
  -2.64041062954830559333e-05
  -3.02248422896119595506e-05
  -3.45937055281638443502e-05
  -3.95884029886959761847e-05
  -4.52974777494072924607e-05
  -5.18217853124815924521e-05
  -5.92761644626821538771e-05
  -6.77913270263315537656e-05
  -7.75159937071197692546e-05
  -8.86193063352503382444e-05
  -1.01293550208392268714e-04
  -1.15757224006012493164e-04
  -1.32258498761823759188e-04
  -1.51079111872021854121e-04
  -1.72538746909436366056e-04
  -1.96999955207417939626e-04
  -2.24873680828066504090e-04
  -2.56625456516121580423e-04
  -2.92782344705674597678e-04
  -3.33940704447870117828e-04
  -3.80774872421747213880e-04
  -4.34046853768813945072e-04
  -4.94617126409968360309e-04
  -5.63456670781566624530e-04
  -6.41660345368493954983e-04
  -7.30461736974927222654e-04
  -8.31249623334846571461e-04
  -9.45586194225128706149e-04
  -1.07522718547883541253e-03
  -1.22214408825565114605e-03
  -1.38854860315554013567e-03
  -1.57691951511873844002e-03
  -1.79003217036537544751e-03
  -2.03099074037059370429e-03
  -2.30326345988452830041e-03
  -2.61072102587252882072e-03
  -2.95767834142858726879e-03
  -3.34893978296657785290e-03
  -3.78984815974035219727e-03
  -4.28633752143503000964e-03
  -4.84498995184277653908e-03
  -5.47309646393706519113e-03
  -6.17872208339072942485e-03
  -6.97077517347082648014e-03
  -7.85908101360885229247e-03
  -8.85445959669485180288e-03
  -9.96880755562247478085e-03
  -1.12151840680125933908e-02
  -1.26079005189425712163e-02
  -1.41626136250999901112e-02
  -1.58964216403666147581e-02
  -1.78279631727210827186e-02
  -1.99775180461525848907e-02
  -2.23671095399666612635e-02
  -2.50206072324993568368e-02
  -2.79638295681466850229e-02
  -3.12246451574019374953e-02
  -3.48330717114743171336e-02
  -3.88213714074672963661e-02
  -4.32241413803196306009e-02
  -4.80783979456130758368e-02
  -5.34236530759501226928e-02
  -5.93019815859714624628e-02
  -6.57580774297497477887e-02
  -7.28392974824698391512e-02
  -8.05956911688386345993e-02
  -8.90800143160904583928e-02
  -9.83477256522532899963e-02
  -1.08456964442735295795e-01
  -1.19468507861645242829e-01
  -1.31445706830039060753e-01
  -1.44454399221553786425e-01
  -1.58562799536997561800e-01
  -1.73841364381738278100e-01
  -1.90362633342155945781e-01
  -2.08201045146825775012e-01
  -2.27432729311137726835e-01
  -2.48135273796558614157e-01
  -2.70387469562343329965e-01
  -2.94269033242552602303e-01
  -3.19860309537862208540e-01
  -3.47241955263343282656e-01
  -3.76494607332070740924e-01
  -4.07698537273094074873e-01
  -4.40933295173118133814e-01
  -4.76277346186423811147e-01
  -5.13807702971223800859e-01
  -5.53599557575294887179e-01
  -5.95725916404833633067e-01
  -6.40257241963854806244e-01
  -6.87261105043149189697e-01
  -7.36801850967761184918e-01
  -7.88940283378801621161e-01
  -8.43733368831734109605e-01
  -9.01233965241402090740e-01
  -9.61490576899902693597e-01
  -1.02454713844144773560e+00
  -1.09044282973782591384e+00
  -1.15921192328575828334e+00
  -1.23088366520387570979e+00
  -1.30548219050079561399e+00
  -1.38302647281774104826e+00
  -1.46353030839813769148e+00
  -1.54700233360267813687e+00
  -1.63344607487962201198e+00
  -1.72286002972439966641e+00
  -1.81523777682632125874e+00
  -1.91056811330870290888e+00
  -2.00883521672546594417e+00
  -2.11001882928494399749e+00
  -2.21409446163080225745e+00
  -2.32103361342051828231e+00
  -2.43080400790176653913e+00
  -2.54336983769375013509e+00
  -2.65869201903034557688e+00
  -2.77672845181008165483e+00
  -2.89743428291989690848e+00
  -3.02076217044976624848e+00
  -3.14666254658836619384e+00
  -3.27508387718003790567e+00
  -3.40597291612604546884e+00
  -3.53927495302255357146e+00
  -3.67493405263995320809e+00
  -3.81289328505875690922e+00
  -3.95309494548304307671e+00
  -4.09548076294955087917e+00
  -4.23999209733783821719e+00
  -4.38657012426099779390e+00
  -4.53515600757717329827e+00
  -4.68569105940783536823e+00
  -4.83811688767919267917e+00
  -4.99237553131807043627e+00
  -5.14840958333363118982e+00
  -5.30616230210094652620e+00
  -5.46557771123383329126e+00
  -5.62660068849172390060e+00
  -5.78917704421107792712e+00
  -5.95325358978586471892e+00
  -6.11877819674599621180e+00
  -6.28569984699723960375e+00
  -6.45396867479372104981e+00
  -6.62353600101395301181e+00
  -6.79435436030552786235e+00
  -6.96637752165322421405e+00
  -7.13956050290997445984e+00
  -7.31385957981228784774e+00
  -7.48923228998074463902e+00
  -7.66563743238342532038e+00
  -7.84303506271604522482e+00
  -8.02138648512739038665e+00
  -8.20065424069305137778e+00
  -8.38080209301483591844e+00
  -8.56179501129769526813e+00
  -8.74359915123086750555e+00
  -8.92618183397545728042e+00
  -9.10951152353718107690e+00
  -9.29355780278009646622e+00
  -9.47829134831551911589e+00
  -9.66368390447966874035e+00
  -9.84970825659406479247e+00
  -1.00363382036843695744e+01
  -1.02235485308161493379e+01
  -1.04113149811897987007e+01
  -1.05996142281221601422e+01
  -1.07884238470281452749e+01
  -1.09777222875032052229e+01
  -1.11674888455951837329e+01
  -1.13577036363437144928e+01
  -1.15483475666547903415e+01
  -1.17394023085694705344e+01
  -1.19308502729770928852e+01
  -1.21226745838158134205e+01
  -1.23148590527965335895e+01
  -1.25073881546799920983e+01
  -1.27002470031310839005e+01
  -1.28934213271696744840e+01
  -1.30868974482324329500e+01
  -1.32806622578563100490e+01
  -1.34747031959904699505e+01
  -1.36690082299406334698e+01
  -1.38635658339466445454e+01
  -1.40583649693916896695e+01
  -1.42533950656394168277e+01
  -1.44486460014933868479e+01
  -1.46441080872714337602e+01
  -1.48397720474862619966e+01
  -1.50356290041222599996e+01
  -1.52316704604977068982e+01
  -1.54278882857002699325e+01
  -1.56242746995835819490e+01
  -1.58208222583114626048e+01
  -1.60175238404364108646e+01
  -1.62143726334983568904e+01
  -1.64113621211296312197e+01
  -1.66084860706515833328e+01
  -1.68057385211487826382e+01
  -1.70031137720060456786e+01
  -1.72006063718941035745e+01
  -1.73982111081895176596e+01
  -1.75959229968146715350e+01
</dep>
<dep dBS21 frequency>
  -5.27486358319993868804e+01
  -5.21611415909039237704e+01
  -5.15742177910830505994e+01
  -5.09878895675511216723e+01
  -5.04021830821509269072e+01
  -4.98171255582508223370e+01
  -4.92327453159612815625e+01
  -4.86490718078147068582e+01
  -4.80661356548446860870e+01
  -4.74839686829938187884e+01
  -4.69026039597705732831e+01
  -4.63220758310682683145e+01
  -4.57424199580494104111e+01
  -4.51636733539907382351e+01
  -4.45858744209739938924e+01
  -4.40090629862986872922e+01
  -4.34332803384827457194e+01
  -4.28585692627074266170e+01
  -4.22849740755526610769e+01
  -4.17125406588593108381e+01
  -4.11413164925447887299e+01
  -4.05713506861888504318e+01
  -4.00026940091972846858e+01
  -3.94353989193422975745e+01
  -3.88695195894701228667e+01
  -3.83051119321588373623e+01
  -3.77422336221028302816e+01
  -3.71809441159948050881e+01
  -3.66213046696714243922e+01
  -3.60633783522862003679e+01
  -3.55072300572711441191e+01
  -3.49529265098489503316e+01
  -3.44005362708594972787e+01
  -3.38501297366679239076e+01
  -3.33017791349275356083e+01
  -3.27555585159785991323e+01
  -3.22115437396741484122e+01
  -3.16698124574360697636e+01
  -3.11304440893589955408e+01
  -3.05935197961960945179e+01
  -3.00591224460790300554e+01
  -2.95273365758443802065e+01
  -2.89982483468605956034e+01
  -2.84719454952721982011e+01
  -2.79485172766018443724e+01
  -2.74280544046747429832e+01
  -2.69106489848544541132e+01
  -2.63963944416024673956e+01
  -2.58853854403967922337e+01
  -2.53777178040655648772e+01
  -2.48734884236108015898e+01
  -2.43727951636131621171e+01
  -2.38757367623216687491e+01
  -2.33824127265409700271e+01
  -2.28929232214337332607e+01
  -2.24073689553561159471e+01
  -2.19258510598394593671e+01
  -2.14484709648227038770e+01
  -2.09753302692260525930e+01
  -2.05065306069387318644e+01
  -2.00421735082718690535e+01
  -1.95823602569036054888e+01
  -1.91271917423168744676e+01
  -1.86767683077037958128e+01
  -1.82311895932846894652e+01
  -1.77905543749662626851e+01
  -1.73549603982445503902e+01
  -1.69245042072455902371e+01
  -1.64992809687922168393e+01
  -1.60793842913915021597e+01
  -1.56649060390550438626e+01
  -1.52559361398968889034e+01
  -1.48525623895009832864e+01
  -1.44548702491145135696e+01
  -1.40629426388052252150e+01
  -1.36768597258201438649e+01
  -1.32966987085002568136e+01
  -1.29225335962388854227e+01
  -1.25544349861200537077e+01
  -1.21924698370338884246e+01
  -1.18367012422367778868e+01
  -1.14871882015001922639e+01
  -1.11439853941701727535e+01
  -1.08071429546338038108e+01
  -1.04767062518557203532e+01
  -1.01527156747989728558e+01
  -9.83520642567785685628e+00
  -9.52420832309705289731e+00
  -9.21974561720885432692e+00
  -8.92183681906230496850e+00
  -8.63049454632154500189e+00
  -8.34572538749182690765e+00
  -8.06752978670966669483e+00
  -7.79590195102678507055e+00
  -7.53082978194664143246e+00
  -7.27229483275991306357e+00
  -7.02027229297425137133e+00
  -6.77473100084781254537e+00
  -6.53563348472269911582e+00
  -6.30293603351852738115e+00
  -6.07658879639659055272e+00
  -5.85653591124819516978e+00
  -5.64271566130611113010e+00
  -5.43506065883237710068e+00
  -5.23349805450825655839e+00
  -5.03794977084833650594e+00
  -4.84833275768853866339e+00
  -4.66455926756158856250e+00
  -4.48653714857757268675e+00
  -4.31417015227510525222e+00
  -4.14735825380100742166e+00
  -3.98599798171480745879e+00
  -3.82998275469711746410e+00
  -3.67920322246661246623e+00
  -3.53354760827560721026e+00
  -3.39290205045629233993e+00
  -3.25715094062267107589e+00
  -3.12617725629413412136e+00
  -2.99986288588899530083e+00
  -2.87808894423576822064e+00
  -2.76073607696097145237e+00
  -2.64768475233052580364e+00
  -2.53881553934196890765e+00
  -2.43400937108347248383e+00
  -2.33314779258861282329e+00
  -2.23611319262057417490e+00
  -2.14278901901247520456e+00
  -2.05305997737090750732e+00
  -1.96681221311466281065e+00
  -1.88393347697030288934e+00
  -1.80431327417908837774e+00
  -1.72784299778611294407e+00
  -1.65441604648246043396e+00
  -1.58392792755502398450e+00
  -1.51627634556737778126e+00
  -1.45136127744915444104e+00
  -1.38908503471236155491e+00
  -1.32935231354157012973e+00
  -1.27207023352253445481e+00
  -1.21714836578140062073e+00
  -1.16449875130569258097e+00
  -1.11403591020980785586e+00
  -1.06567684269287776821e+00
  -1.01934102241645252462e+00
  -9.74950383005179554985e-01
  -9.32429298345285983984e-01
  -8.91704557325238567067e-01
  -8.52705333630003892154e-01
  -8.15363151166691446647e-01
  -7.79611845664552771673e-01
  -7.45387522957344894614e-01
  -7.12628514421426162428e-01
  -6.81275330008805690696e-01
  -6.51270609280597767565e-01
  -6.22559070814407644612e-01
  -5.95087460327482609124e-01
  -5.68804497828018451600e-01
  -5.43660824078307070018e-01
  -5.19608946626591183815e-01
  -4.96603185639131472495e-01
  -4.74599619740218026109e-01
  -4.53556032045320800528e-01
  -4.33431856552321581599e-01
  -4.14188125035891308023e-01
  -3.95787414572803530888e-01
  -3.78193795809240840278e-01
  -3.61372782066123887645e-01
  -3.45291279364681513719e-01
  -3.29917537441832331435e-01
  -3.15221101813417892146e-01
  -3.01172766932795488160e-01
  -2.87744530483172666901e-01
  -2.74909548832912242755e-01
  -2.62642093676100973898e-01
  -2.50917509873094413120e-01
  -2.39712174500209151962e-01
  -2.29003457111714936456e-01
  -2.18769681212950400928e-01
  -2.08990086938701385977e-01
  -1.99644794927452462474e-01
  -1.90714771378880265651e-01
  -1.82181794278898051553e-01
  -1.74028420774420489181e-01
  -1.66237955677700499635e-01
  -1.58794421078495062716e-01
  -1.51682527040690962039e-01
  -1.44887643359095874551e-01
  -1.38395772350756007807e-01
  -1.32193522654867279265e-01
  -1.26268084014307113705e-01
  -1.20607203011902211487e-01
  -1.15199159733923195414e-01
  -1.10032745333408815691e-01
  -1.05097240465870794823e-01
  -1.00382394570047508986e-01
  -9.58784059665663407346e-02
  -9.15759027476701625847e-02
  -8.74659244315328099351e-02
  -8.35399043550213715736e-02
  -7.97896527793620358171e-02
  -7.62073406833950195427e-02
</dep>
<dep S[1,1] frequency>
  +9.16639141624116415841e-01-j3.99709111142504458503e-01
  +9.12835559145780850443e-01-j4.08319926292284141045e-01
  +9.08864365801911766596e-01-j4.17083450969439439859e-01
  +9.04718726026488728742e-01-j4.26000071964390381041e-01
  +9.00391576354027334261e-01-j4.35069987134942159912e-01
  +8.95875622628298673433e-01-j4.44293190027767792571e-01
  +8.91163337694976687153e-01-j4.53669453691235902149e-01
  +8.86246959641235343419e-01-j4.63198313661163263433e-01
  +8.81118490649912655677e-01-j4.72879050103452325260e-01
  +8.75769696540591002787e-01-j4.82710669100373912510e-01
  +8.70192107074773235631e-01-j4.92691883070527358868e-01
  +8.64377017107275102958e-01-j5.02821090316279639687e-01
  +8.58315488670931991955e-01-j5.13096353696804063915e-01
  +8.51998354086741072067e-01-j5.23515378429731281784e-01
  +8.45416220196545942223e-01-j5.34075489029939287633e-01
  +8.38559473820307821335e-01-j5.44773605400184268710e-01
  +8.31418288544820804908e-01-j5.55606218095130444112e-01
  +8.23982632955368110572e-01-j5.66569362787933017422e-01
  +8.16242280426220268019e-01-j5.77658593976865475383e-01
  +8.08186820589964605155e-01-j5.88868957978619822491e-01
  +7.99805672609355422509e-01-j6.00194965264840507579e-01
  +7.91088100378601888352e-01-j6.11630562209213191061e-01
  +7.82023229783672779725e-01-j6.23169102324025225847e-01
  +7.72600068153204255772e-01-j6.34803317077549889014e-01
  +7.62807526032828642215e-01-j6.46525286396878895445e-01
  +7.52634441416119015500e-01-j6.58326408974915233685e-01
  +7.42069606564735084753e-01-j6.70197372515137779203e-01
  +7.31101797548650900183e-01-j6.82128124063403507016e-01
  +7.19719806634430026016e-01-j6.94107840592439129246e-01
  +7.07912477645273985338e-01-j7.06124900021726786825e-01
